
T1CBC 000:037 SEGGER J-Link V4.62 Log File (0000ms, 0037ms total)
T1CBC 000:037 DLL Compiled: Jan 25 2013 15:19:47 (0000ms, 0037ms total)
T1CBC 000:037 Logging started @ 2015-02-03 13:56 (0000ms, 0037ms total)
T1CBC 000:037 JLINK_SetWarnOutHandler(...) (0000ms, 0037ms total)
T1CBC 000:037 JLINK_OpenEx(...)
Firmware: J-Link ARM V8 compiled Nov 25 2013 19:20:08
Hardware: V8.00
S/N: 20080000
Feature(s): RDI,FlashDL,FlashBP,JFlash,GDBFULL  returns O.K. (0015ms, 0052ms total)
T1CBC 000:052 JLINK_SetErrorOutHandler(...) (0000ms, 0052ms total)
T1CBC 000:052 JLINK_ExecCommand("ProjectFile = "F:\ZhangDaqing\Work\Learning\OS\STM32_FreeRTOS_Exp\my_task_exp1\USER\JLinkSettings.ini"", ...)  returns 0x00 (0000ms, 0052ms total)
T1CBC 000:052 JLINK_ExecCommand("Device = STM32F103VE", ...)
                JLINK_ExecCommand("map ram 0x20000000 - 0x2000FFFF", ...)  returns 0x00 (0000ms, 0000ms total)
                JLINK_AddMirrorAreaEx(Addr = 0x00000000, Size = 0x00000000) (0000ms, 0000ms total)
              Device "STM32F103VE" selected (512 KB flash, 64 KB RAM).  returns 0x00 (0001ms, 0053ms total)
T1CBC 000:053 JLINK_ExecCommand("DisableConnectionTimeout", ...)  returns 0x00 (0000ms, 0053ms total)
T1CBC 000:053 JLINK_TIF_Select(JLINKARM_TIF_SWD)  returns 0x00 (0003ms, 0056ms total)
T1CBC 000:056 JLINK_SetSpeed(2000) (0000ms, 0056ms total)
T1CBC 000:056 JLINK_GetHardwareVersion()  returns 0x13880 (0000ms, 0056ms total)
T1CBC 000:056 JLINK_GetDLLVersion()  returns 46200 (0000ms, 0056ms total)
T1CBC 000:056 JLINK_GetFirmwareString(...) (0000ms, 0056ms total)
T1CBC 000:056 JLINK_GetDLLVersion()  returns 46200 (0000ms, 0056ms total)
T1CBC 000:056 JLINK_GetCompileDateTime() (0000ms, 0056ms total)
T1CBC 000:056 JLINK_GetFirmwareString(...) (0000ms, 0056ms total)
T1CBC 000:056 JLINK_GetHardwareVersion()  returns 0x13880 (0000ms, 0056ms total)
T1CBC 000:056 JLINK_GetId() >0x108 TIF>Found SWD-DP with ID 0x1BA01477 >0x0D TIF> >0x28 TIF> >0x0D TIF> >0x28 TIF> >0x0D TIF> >0x21 TIF> >0x0D TIF> >0x28 TIF> >0x0D TIF> >0x28 TIF> >0x0D TIF> >0x28 TIF> >0x0D TIF> >0x21 TIF> >0x0D TIF> >0x21 TIF> >0x0D TIF> >0x28 TIF> >0x0D TIF> >0x21 TIF> >0x0D TIF> >0x21 TIF> >0x108 TIF>Found SWD-DP with ID 0x1BA01477 >0x0D TIF> >0x21 TIF> >0x0D TIF> >0x28 TIF> >0x0D TIF> >0x28 TIF> >0x0D TIF> >0x21 TIF> >0x0D TIF> >0x21 TIF> >0x0D TIF> >0x28 TIF> >0x0D TIF> >0x21 TIF>
 >0x0D TIF> >0x21 TIF> >0x0D TIF> >0x21 TIF> >0x0D TIF> >0x21 TIF> >0x0D TIF> >0x21 TIF> >0x0D TIF> >0x28 TIF> >0x0D TIF> >0x28 TIF> >0x0D TIF> >0x21 TIF> >0x0D TIF> >0x21 TIF> >0x0D TIF> >0x28 TIF> >0x0D TIF> >0x21 TIF> >0x0D TIF> >0x21 TIF> >0x0D TIF> >0x28 TIF> >0x0D TIF> >0x28 TIF> >0x0D TIF> >0x28 TIF> >0x0D TIF> >0x21 TIF> >0x0D TIF> >0x21 TIF> >0x0D TIF> >0x28 TIF> >0x0D TIF> >0x28 TIF> >0x0D TIF> >0x28 TIF> >0x0D TIF> >0x21 TIF> >0x0D TIF> >0x21 TIF> >0x0D TIF> >0x21 TIF>TPIU fitted.ETM fitted.
 >0x0D TIF> >0x28 TIF> >0x0D TIF> >0x21 TIF> >0x0D TIF> >0x21 TIF> >0x0D TIF> >0x28 TIF> >0x0D TIF> >0x21 TIF> >0x0D TIF> >0x21 TIF>FPUnit: 6 code (BP) slots and 2 literal slots >0x0D TIF> >0x28 TIF> >0x0D TIF> >0x21 TIF> >0x0D TIF> >0x21 TIF> >0x0D TIF> >0x28 TIF> >0x0D TIF> >0x21 TIF> >0x0D TIF> >0x21 TIF> >0x0D TIF> >0x28 TIF> >0x0D TIF> >0x21 TIF> >0x0D TIF> >0x21 TIF> >0x0D TIF> >0x28 TIF> >0x0D TIF> >0x21 TIF> >0x0D TIF> >0x21 TIF>Found Cortex-M3 r1p1, Little endian. >0x0D TIF> >0x21 TIF>
  returns 0x1BA01477 (0065ms, 0121ms total)
T1CBC 000:121 JLINK_GetDeviceFamily()  returns 3 (0000ms, 0121ms total)
T1CBC 000:121 JLINK_ReadMem (0xE00FFFF0, 0x0010 Bytes, ...) -- CPU is running -- CPU_ReadMem(16 bytes @ 0xE00FFFF0) -- Data:  0D 00 00 00 10 00 00 00 05 00 00 00 B1 00 00 00  returns 0x00 (0001ms, 0122ms total)
T1CBC 000:122 JLINK_ReadMem (0xE00FFFD0, 0x0020 Bytes, ...) -- CPU is running -- CPU_ReadMem(32 bytes @ 0xE00FFFD0) -- Data:  00 00 00 00 00 00 00 00 00 00 00 00 00 00 00 00 ...  returns 0x00 (0002ms, 0124ms total)
T1CBC 000:124 JLINK_ReadMem (0xE00FF000, 0x0018 Bytes, ...) -- CPU is running -- CPU_ReadMem(24 bytes @ 0xE00FF000) -- Data:  03 F0 F0 FF 03 20 F0 FF 03 30 F0 FF 03 10 F0 FF ...  returns 0x00 (0001ms, 0125ms total)
T1CBC 000:125 JLINK_ReadMemU32(0xE000ED00, 0x0001 Items, ...) -- CPU is running -- CPU_ReadMem(4 bytes @ 0xE000ED00) -- Data:  31 C2 1F 41  returns 0x01 (0000ms, 0125ms total)
T1CBC 000:125 JLINK_SetResetType(JLINKARM_RESET_TYPE_NORMAL)  returns JLINKARM_RESET_TYPE_NORMAL (0000ms, 0125ms total)
T1CBC 000:125 JLINK_Reset() -- CPU is running -- CPU_WriteMem(4 bytes @ 0xE000EDF0) -- CPU is running -- CPU_WriteMem(4 bytes @ 0xE000EDFC) >0x35 TIF> -- CPU is running -- CPU_WriteMem(4 bytes @ 0xE000ED0C) -- CPU is running -- CPU_ReadMem(4 bytes @ 0xE000EDF0) -- CPU is running -- CPU_ReadMem(4 bytes @ 0xE000EDF0) -- CPU is running -- CPU_WriteMem(4 bytes @ 0xE000EDF0) -- CPU is running -- CPU_WriteMem(4 bytes @ 0xE000EDFC) -- CPU is running -- CPU_ReadMem(4 bytes @ 0xE000EDF0)
 -- CPU_WriteMem(4 bytes @ 0xE0002000) (0023ms, 0148ms total)
T1CBC 000:148 JLINK_ReadReg(R15)  returns 0x080001E4 (0000ms, 0148ms total)
T1CBC 000:148 JLINK_ReadReg(XPSR)  returns 0x01000000 (0000ms, 0148ms total)
T1CBC 000:148 JLINK_Halt()  returns 0x00 (0000ms, 0148ms total)
T1CBC 000:148 JLINK_IsHalted()  returns TRUE (0000ms, 0148ms total)
T1CBC 000:148 JLINK_ReadMemU32(0xE000EDF0, 0x0001 Items, ...) -- CPU_ReadMem(4 bytes @ 0xE000EDF0) -- Data:  03 00 03 00  returns 0x01 (0001ms, 0149ms total)
T1CBC 000:149 JLINK_WriteU32(0xE000EDF0, 0xA05F0003) -- CPU_WriteMem(4 bytes @ 0xE000EDF0)  returns 0x00 (0001ms, 0150ms total)
T1CBC 000:150 JLINK_WriteU32(0xE000EDFC, 0x01000000) -- CPU_WriteMem(4 bytes @ 0xE000EDFC)  returns 0x00 (0001ms, 0151ms total)
T1CBC 000:151 JLINK_GetHWStatus(...)  returns 0x00 (0000ms, 0151ms total)
T1CBC 000:151 JLINK_GetNumBPUnits(Type = 0xFFFFFF00)  returns 0x06 (0000ms, 0151ms total)
T1CBC 000:151 JLINK_GetNumBPUnits(Type = 0xF0)  returns 0x2000 (0000ms, 0151ms total)
T1CBC 000:151 JLINK_GetNumWPUnits()  returns 0x04 (0000ms, 0151ms total)
T1CBC 000:151 JLINK_GetSpeed()  returns 0x7D0 (0000ms, 0151ms total)
T1CBC 000:151 JLINK_ReadMemU32(0xE000E004, 0x0001 Items, ...) -- CPU_ReadMem(4 bytes @ 0xE000E004) -- Data:  01 00 00 00  returns 0x01 (0002ms, 0153ms total)
T1CBC 000:153 JLINK_ReadMemU32(0xE000E004, 0x0001 Items, ...) -- CPU_ReadMem(4 bytes @ 0xE000E004) -- Data:  01 00 00 00  returns 0x01 (0001ms, 0154ms total)
T1CBC 000:154 JLINK_WriteMem(0xE0001000, 0x001C Bytes, ...) -- Data:  01 00 00 00 00 00 00 00 00 00 00 00 00 00 00 00 ... -- CPU_WriteMem(28 bytes @ 0xE0001000)  returns 0x1C (0001ms, 0155ms total)
T1CBC 000:155 JLINK_ReadMem (0xE0001000, 0x001C Bytes, ...) -- CPU_ReadMem(28 bytes @ 0xE0001000) -- Data:  01 00 00 40 00 00 00 00 00 00 00 00 00 00 00 00 ...  returns 0x00 (0001ms, 0156ms total)
T1CBC 000:156 JLINK_ReadReg(R15)  returns 0x080001E4 (0000ms, 0156ms total)
T1CBC 000:156 JLINK_ReadReg(XPSR)  returns 0x01000000 (0000ms, 0156ms total)
T1CBC 000:225 JLINK_SetResetType(JLINKARM_RESET_TYPE_NORMAL)  returns JLINKARM_RESET_TYPE_NORMAL (0001ms, 0157ms total)
T1CBC 000:226 JLINK_Reset() -- CPU_WriteMem(4 bytes @ 0xE000EDF0) -- CPU_WriteMem(4 bytes @ 0xE000EDFC) >0x35 TIF> -- CPU_WriteMem(4 bytes @ 0xE000ED0C) -- CPU_ReadMem(4 bytes @ 0xE000EDF0) -- CPU_ReadMem(4 bytes @ 0xE000EDF0) -- CPU_WriteMem(4 bytes @ 0xE000EDF0) -- CPU_WriteMem(4 bytes @ 0xE000EDFC) -- CPU is running -- CPU_ReadMem(4 bytes @ 0xE000EDF0) -- CPU_WriteMem(4 bytes @ 0xE0002000) (0022ms, 0179ms total)
T1CBC 000:248 JLINK_ReadReg(R15)  returns 0x080001E4 (0000ms, 0179ms total)
T1CBC 000:248 JLINK_ReadReg(XPSR)  returns 0x01000000 (0000ms, 0179ms total)
T1CBC 000:248 JLINK_ReadMemU32(0xE0001004, 0x0001 Items, ...) -- CPU_ReadMem(4 bytes @ 0xE0001004) -- Data:  21 2B 00 00  returns 0x01 (0001ms, 0180ms total)
T1CBC 000:249 JLINK_ReadMem (0x080001E4, 0x003C Bytes, ...) -- CPU_ReadMem(128 bytes @ 0x080001C0) -- Updating C cache (128 bytes @ 0x080001C0) -- Read from C cache (60 bytes @ 0x080001E4) -- Data:  06 48 80 47 06 48 00 47 FE E7 FE E7 FE E7 FE E7 ...  returns 0x00 (0002ms, 0182ms total)
T1CBC 000:847 JLINK_ReadMem (0x00000000, 0x00FF Bytes, ...)
                JLINK_ReadMemHW(0x00000000, 0x0004 Bytes, ...) -- CPU_ReadMem(4 bytes @ 0x00000000) -- Data:  E8 AC 00 20  returns 0x00 (0000ms, 0000ms total)
                JLINK_ReadMemHW(0x08000000, 0x0004 Bytes, ...) -- CPU_ReadMem(4 bytes @ 0x08000000) -- Data:  E8 AC 00 20  returns 0x00 (0001ms, 0001ms total)
                JLINK_WriteMemHW(0x00000000, 0x0004 Bytes, ...) -- Data:  09 00 01 00 -- CPU_WriteMem(4 bytes @ 0x00000000)  returns 0x04 (0001ms, 0002ms total)
                JLINK_ReadMemHW(0x00000000, 0x0004 Bytes, ...) -- CPU_ReadMem(4 bytes @ 0x00000000) -- Data:  E8 AC 00 20  returns 0x00 (0001ms, 0003ms total)
               -- MA0 is in flash -- Unmirror addr 0x00000000 -- CPU_ReadMem(256 bytes @ 0x08000000) -- Updating C cache (256 bytes @ 0x08000000) -- Read from C cache (255 bytes @ 0x08000000) -- Data:  E8 AC 00 20 E5 01 00 08 09 02 00 08 0B 02 00 08 ...  returns 0x00 (0007ms, 0189ms total)
T1CBC 001:089 JLINK_ReadMem (0x08000D78, 0x003C Bytes, ...) -- CPU_ReadMem(128 bytes @ 0x08000D40) -- Updating C cache (128 bytes @ 0x08000D40) -- Read from C cache (60 bytes @ 0x08000D78) -- Data:  19 4A 0A 40 02 43 15 4B 1B 1F 1A 60 70 47 39 B1 ...  returns 0x00 (0002ms, 0191ms total)
T1CBC 001:261 JLINK_ReadMem (0x2000AC98, 0x00CC Bytes, ...) -- CPU_ReadMem(256 bytes @ 0x2000AC80) -- Updating C cache (256 bytes @ 0x2000AC80) -- Read from C cache (204 bytes @ 0x2000AC98) -- Data:  2A 57 58 9D CA C2 83 BC E3 2E 02 9E C3 B7 10 DE ...  returns 0x00 (0003ms, 0194ms total)
T1074 001:274 JLINK_SetBPEx(Addr = 0x08002356, Type = 0xFFFFFFF2)  returns 0x00000001 (0000ms, 0194ms total)
T1074 001:274 JLINK_Go() -- CPU_WriteMem(4 bytes @ 0xE0002008) -- CPU_WriteMem(4 bytes @ 0xE000200C) -- CPU_WriteMem(4 bytes @ 0xE0002010) -- CPU_WriteMem(4 bytes @ 0xE0002014) -- CPU_WriteMem(4 bytes @ 0xE0002018) -- CPU_WriteMem(4 bytes @ 0xE000201C) -- Invalidate MA0 status (0007ms, 0201ms total)
T1074 001:382 JLINK_IsHalted()  returns TRUE (0004ms, 0205ms total)
T1074 001:386 JLINK_Halt()  returns 0x00 (0000ms, 0201ms total)
T1074 001:386 JLINK_IsHalted()  returns TRUE (0000ms, 0201ms total)
T1074 001:386 JLINK_IsHalted()  returns TRUE (0000ms, 0201ms total)
T1074 001:386 JLINK_IsHalted()  returns TRUE (0000ms, 0201ms total)
T1074 001:386 JLINK_ReadReg(R15)  returns 0x08002356 (0000ms, 0201ms total)
T1074 001:386 JLINK_ReadReg(XPSR)  returns 0x61000000 (0000ms, 0201ms total)
T1074 001:386 JLINK_ClrBPEx(BPHandle = 0x00000001)  returns 0x00 (0000ms, 0201ms total)
T1074 001:386 JLINK_ReadMemU32(0xE000ED30, 0x0001 Items, ...) -- CPU_ReadMem(4 bytes @ 0xE000ED30) -- Data:  03 00 00 00  returns 0x01 (0001ms, 0202ms total)
T1074 001:387 JLINK_ReadMemU32(0xE0001028, 0x0001 Items, ...) -- CPU_ReadMem(4 bytes @ 0xE0001028) -- Data:  00 00 00 00  returns 0x01 (0001ms, 0203ms total)
T1074 001:388 JLINK_ReadMemU32(0xE0001038, 0x0001 Items, ...) -- CPU_ReadMem(4 bytes @ 0xE0001038) -- Data:  00 02 00 00  returns 0x01 (0001ms, 0204ms total)
T1074 001:389 JLINK_ReadMemU32(0xE0001048, 0x0001 Items, ...) -- CPU_ReadMem(4 bytes @ 0xE0001048) -- Data:  00 00 00 00  returns 0x01 (0000ms, 0204ms total)
T1074 001:389 JLINK_ReadMemU32(0xE0001058, 0x0001 Items, ...) -- CPU_ReadMem(4 bytes @ 0xE0001058) -- Data:  00 00 00 00  returns 0x01 (0001ms, 0205ms total)
T1074 001:390 JLINK_ReadReg(R0)  returns 0x08002357 (0000ms, 0205ms total)
T1074 001:390 JLINK_ReadReg(R1)  returns 0x2000ACE8 (0000ms, 0205ms total)
T1074 001:390 JLINK_ReadReg(R2)  returns 0x00000000 (0000ms, 0205ms total)
T1074 001:390 JLINK_ReadReg(R3)  returns 0x080027FD (0000ms, 0205ms total)
T1074 001:390 JLINK_ReadReg(R4)  returns 0x08002854 (0000ms, 0205ms total)
T1074 001:390 JLINK_ReadReg(R5)  returns 0x08002854 (0000ms, 0205ms total)
T1074 001:390 JLINK_ReadReg(R6)  returns 0x00000000 (0000ms, 0205ms total)
T1074 001:390 JLINK_ReadReg(R7)  returns 0x00000000 (0000ms, 0205ms total)
T1074 001:390 JLINK_ReadReg(R8)  returns 0x00000000 (0000ms, 0205ms total)
T1074 001:390 JLINK_ReadReg(R9)  returns 0x20000258 (0000ms, 0205ms total)
T1074 001:390 JLINK_ReadReg(R10)  returns 0x00000000 (0000ms, 0205ms total)
T1074 001:390 JLINK_ReadReg(R11)  returns 0x00000000 (0000ms, 0205ms total)
T1074 001:390 JLINK_ReadReg(R12)  returns 0x00000000 (0000ms, 0205ms total)
T1074 001:390 JLINK_ReadReg(R13)  returns 0x2000ACE8 (0000ms, 0205ms total)
T1074 001:390 JLINK_ReadReg(R14)  returns 0x080027E5 (0000ms, 0205ms total)
T1074 001:390 JLINK_ReadReg(R15)  returns 0x08002356 (0000ms, 0205ms total)
T1074 001:390 JLINK_ReadReg(XPSR)  returns 0x61000000 (0000ms, 0205ms total)
T1074 001:390 JLINK_ReadReg(MSP)  returns 0x2000ACE8 (0000ms, 0205ms total)
T1074 001:390 JLINK_ReadReg(PSP)  returns 0x20000800 (0000ms, 0205ms total)
T1074 001:390 JLINK_ReadReg(CFBP)  returns 0x00000000 (0000ms, 0205ms total)
T1CBC 001:391 JLINK_ReadMemU32(0xE0001004, 0x0001 Items, ...) -- CPU_ReadMem(4 bytes @ 0xE0001004) -- Data:  7A BE 01 00  returns 0x01 (0001ms, 0206ms total)
T1CBC 001:393 JLINK_ReadMem (0x2000AC98, 0x00CC Bytes, ...) -- CPU_ReadMem(256 bytes @ 0x2000AC80) -- Updating C cache (256 bytes @ 0x2000AC80) -- Read from C cache (204 bytes @ 0x2000AC98) -- Data:  00 00 00 00 00 00 00 00 00 00 00 00 00 00 00 00 ...  returns 0x00 (0003ms, 0209ms total)
T1CBC 001:401 JLINK_ReadMem (0x08002354, 0x003C Bytes, ...) -- CPU_ReadMem(128 bytes @ 0x08002340) -- Updating C cache (128 bytes @ 0x08002340) -- Read from C cache (60 bytes @ 0x08002354) -- Data:  10 BD 1F B5 FF F7 E8 FF 00 20 14 4A 01 23 CD E9 ...  returns 0x00 (0003ms, 0212ms total)
T1074 012:332 JLINK_Step() -- Read from C cache (2 bytes @ 0x08002356) -- CPU_WriteMem(24 bytes @ 0x2000ACD0) -- Simulated  returns 0x00 (0003ms, 0215ms total)
T1074 012:335 JLINK_ReadReg(R15)  returns 0x08002358 (0000ms, 0215ms total)
T1074 012:335 JLINK_ReadReg(XPSR)  returns 0x61000000 (0000ms, 0215ms total)
T1074 012:335 JLINK_ReadReg(R0)  returns 0x08002357 (0000ms, 0215ms total)
T1074 012:335 JLINK_ReadReg(R1)  returns 0x2000ACE8 (0000ms, 0215ms total)
T1074 012:335 JLINK_ReadReg(R2)  returns 0x00000000 (0000ms, 0215ms total)
T1074 012:335 JLINK_ReadReg(R3)  returns 0x080027FD (0000ms, 0215ms total)
T1074 012:335 JLINK_ReadReg(R4)  returns 0x08002854 (0000ms, 0215ms total)
T1074 012:335 JLINK_ReadReg(R5)  returns 0x08002854 (0000ms, 0215ms total)
T1074 012:335 JLINK_ReadReg(R6)  returns 0x00000000 (0000ms, 0215ms total)
T1074 012:335 JLINK_ReadReg(R7)  returns 0x00000000 (0000ms, 0215ms total)
T1074 012:335 JLINK_ReadReg(R8)  returns 0x00000000 (0000ms, 0215ms total)
T1074 012:335 JLINK_ReadReg(R9)  returns 0x20000258 (0000ms, 0215ms total)
T1074 012:335 JLINK_ReadReg(R10)  returns 0x00000000 (0000ms, 0215ms total)
T1074 012:335 JLINK_ReadReg(R11)  returns 0x00000000 (0000ms, 0215ms total)
T1074 012:335 JLINK_ReadReg(R12)  returns 0x00000000 (0000ms, 0215ms total)
T1074 012:335 JLINK_ReadReg(R13)  returns 0x2000ACD0 (0000ms, 0215ms total)
T1074 012:335 JLINK_ReadReg(R14)  returns 0x080027E5 (0000ms, 0215ms total)
T1074 012:335 JLINK_ReadReg(R15)  returns 0x08002358 (0000ms, 0215ms total)
T1074 012:335 JLINK_ReadReg(XPSR)  returns 0x61000000 (0000ms, 0215ms total)
T1074 012:335 JLINK_ReadReg(MSP)  returns 0x2000ACD0 (0000ms, 0215ms total)
T1074 012:335 JLINK_ReadReg(PSP)  returns 0x20000800 (0000ms, 0215ms total)
T1074 012:335 JLINK_ReadReg(CFBP)  returns 0x00000000 (0000ms, 0215ms total)
T1CBC 012:338 JLINK_ReadMemU32(0xE0001004, 0x0001 Items, ...) -- Data:  7A BE 01 00  returns 0x01 (0000ms, 0215ms total)
T1CBC 012:339 JLINK_ReadMem (0x2000AC98, 0x00CC Bytes, ...) -- CPU_ReadMem(64 bytes @ 0x2000ACC0) -- Updating C cache (64 bytes @ 0x2000ACC0) -- Read from C cache (204 bytes @ 0x2000AC98) -- Data:  00 00 00 00 00 00 00 00 00 00 00 00 00 00 00 00 ...  returns 0x00 (0001ms, 0216ms total)
T1CBC 012:345 JLINK_ReadMem (0x08002354, 0x003C Bytes, ...) -- Read from C cache (60 bytes @ 0x08002354) -- Data:  10 BD 1F B5 FF F7 E8 FF 00 20 14 4A 01 23 CD E9 ...  returns 0x00 (0000ms, 0216ms total)
T1074 012:700 JLINK_SetBPEx(Addr = 0x0800235C, Type = 0xFFFFFFF2)  returns 0x00000002 (0000ms, 0216ms total)
T1074 012:700 JLINK_Go() -- CPU_WriteMem(4 bytes @ 0xE0002008) (0003ms, 0219ms total)
T1074 012:804 JLINK_IsHalted()  returns TRUE (0003ms, 0222ms total)
T1074 012:807 JLINK_Halt()  returns 0x00 (0000ms, 0219ms total)
T1074 012:807 JLINK_IsHalted()  returns TRUE (0000ms, 0219ms total)
T1074 012:807 JLINK_IsHalted()  returns TRUE (0000ms, 0219ms total)
T1074 012:807 JLINK_IsHalted()  returns TRUE (0000ms, 0219ms total)
T1074 012:807 JLINK_ReadReg(R15)  returns 0x0800235C (0000ms, 0219ms total)
T1074 012:807 JLINK_ReadReg(XPSR)  returns 0x01000000 (0000ms, 0219ms total)
T1074 012:807 JLINK_ClrBPEx(BPHandle = 0x00000002)  returns 0x00 (0000ms, 0219ms total)
T1074 012:807 JLINK_ReadMemU32(0xE000ED30, 0x0001 Items, ...) -- CPU_ReadMem(4 bytes @ 0xE000ED30) -- Data:  03 00 00 00  returns 0x01 (0001ms, 0220ms total)
T1074 012:808 JLINK_ReadMemU32(0xE0001028, 0x0001 Items, ...) -- CPU_ReadMem(4 bytes @ 0xE0001028) -- Data:  00 00 00 00  returns 0x01 (0001ms, 0221ms total)
T1074 012:809 JLINK_ReadMemU32(0xE0001038, 0x0001 Items, ...) -- CPU_ReadMem(4 bytes @ 0xE0001038) -- Data:  00 02 00 00  returns 0x01 (0001ms, 0222ms total)
T1074 012:810 JLINK_ReadMemU32(0xE0001048, 0x0001 Items, ...) -- CPU_ReadMem(4 bytes @ 0xE0001048) -- Data:  00 00 00 00  returns 0x01 (0000ms, 0222ms total)
T1074 012:810 JLINK_ReadMemU32(0xE0001058, 0x0001 Items, ...) -- CPU_ReadMem(4 bytes @ 0xE0001058) -- Data:  00 00 00 00  returns 0x01 (0001ms, 0223ms total)
T1074 012:811 JLINK_ReadReg(R0)  returns 0x00000300 (0000ms, 0223ms total)
T1074 012:811 JLINK_ReadReg(R1)  returns 0x05FA0300 (0000ms, 0223ms total)
T1074 012:811 JLINK_ReadReg(R2)  returns 0xE000ED0C (0000ms, 0223ms total)
T1074 012:811 JLINK_ReadReg(R3)  returns 0x01000D25 (0000ms, 0223ms total)
T1074 012:811 JLINK_ReadReg(R4)  returns 0x08002854 (0000ms, 0223ms total)
T1074 012:811 JLINK_ReadReg(R5)  returns 0x08002854 (0000ms, 0223ms total)
T1074 012:811 JLINK_ReadReg(R6)  returns 0x00000000 (0000ms, 0223ms total)
T1074 012:811 JLINK_ReadReg(R7)  returns 0x00000000 (0000ms, 0223ms total)
T1074 012:811 JLINK_ReadReg(R8)  returns 0x00000000 (0000ms, 0223ms total)
T1074 012:811 JLINK_ReadReg(R9)  returns 0x20000258 (0000ms, 0223ms total)
T1074 012:811 JLINK_ReadReg(R10)  returns 0x00000000 (0000ms, 0223ms total)
T1074 012:811 JLINK_ReadReg(R11)  returns 0x00000000 (0000ms, 0223ms total)
T1074 012:811 JLINK_ReadReg(R12)  returns 0x00000400 (0000ms, 0223ms total)
T1074 012:811 JLINK_ReadReg(R13)  returns 0x2000ACD0 (0000ms, 0223ms total)
T1074 012:811 JLINK_ReadReg(R14)  returns 0x08002463 (0000ms, 0223ms total)
T1074 012:811 JLINK_ReadReg(R15)  returns 0x0800235C (0000ms, 0223ms total)
T1074 012:811 JLINK_ReadReg(XPSR)  returns 0x01000000 (0001ms, 0224ms total)
T1074 012:812 JLINK_ReadReg(MSP)  returns 0x2000ACD0 (0000ms, 0224ms total)
T1074 012:812 JLINK_ReadReg(PSP)  returns 0x20000800 (0000ms, 0224ms total)
T1074 012:812 JLINK_ReadReg(CFBP)  returns 0x00000000 (0000ms, 0224ms total)
T1CBC 012:812 JLINK_ReadMemU32(0xE0001004, 0x0001 Items, ...) -- CPU_ReadMem(4 bytes @ 0xE0001004) -- Data:  D1 C3 01 00  returns 0x01 (0001ms, 0225ms total)
T1CBC 012:813 JLINK_ReadMem (0x2000AC98, 0x00CC Bytes, ...) -- CPU_ReadMem(256 bytes @ 0x2000AC80) -- Updating C cache (256 bytes @ 0x2000AC80) -- Read from C cache (204 bytes @ 0x2000AC98) -- Data:  00 00 00 00 00 00 00 00 00 00 00 00 58 02 00 20 ...  returns 0x00 (0004ms, 0229ms total)
T1074 014:204 JLINK_ReadMem (0x0800235C, 0x003C Bytes, ...) -- CPU_ReadMem(128 bytes @ 0x08002340) -- Updating C cache (128 bytes @ 0x08002340) -- Read from C cache (60 bytes @ 0x0800235C) -- Data:  00 20 14 4A 01 23 CD E9 01 20 00 93 03 90 03 46 ...  returns 0x00 (0002ms, 0231ms total)
T1074 014:206 JLINK_Step() -- Read from C cache (2 bytes @ 0x0800235C) -- Simulated  returns 0x00 (0001ms, 0232ms total)
T1074 014:207 JLINK_ReadReg(R15)  returns 0x0800235E (0000ms, 0232ms total)
T1074 014:207 JLINK_ReadReg(XPSR)  returns 0x41000000 (0000ms, 0232ms total)
T1074 014:207 JLINK_Step() -- Read from C cache (2 bytes @ 0x0800235E) -- Read from C cache (4 bytes @ 0x080023B0) -- Simulated  returns 0x00 (0000ms, 0232ms total)
T1074 014:207 JLINK_ReadReg(R15)  returns 0x08002360 (0000ms, 0232ms total)
T1074 014:207 JLINK_ReadReg(XPSR)  returns 0x41000000 (0000ms, 0232ms total)
T1074 014:207 JLINK_Step() -- Read from C cache (2 bytes @ 0x08002360) -- Simulated  returns 0x00 (0000ms, 0232ms total)
T1074 014:207 JLINK_ReadReg(R15)  returns 0x08002362 (0000ms, 0232ms total)
T1074 014:207 JLINK_ReadReg(XPSR)  returns 0x01000000 (0000ms, 0232ms total)
T1074 014:207 JLINK_Step() -- Read from C cache (2 bytes @ 0x08002362) -- Read from C cache (2 bytes @ 0x08002364) -- Not simulated -- CPU_WriteMem(4 bytes @ 0xE0002008)  returns 0x00 (0008ms, 0240ms total)
T1074 014:215 JLINK_ReadReg(R15)  returns 0x08002366 (0000ms, 0240ms total)
T1074 014:215 JLINK_ReadReg(XPSR)  returns 0x01000000 (0000ms, 0240ms total)
T1074 014:215 JLINK_Step() -- CPU_ReadMem(64 bytes @ 0x08002340) -- Updating C cache (64 bytes @ 0x08002340) -- Read from C cache (2 bytes @ 0x08002366) -- CPU_WriteMem(4 bytes @ 0x2000ACD0) -- Simulated  returns 0x00 (0002ms, 0242ms total)
T1074 014:217 JLINK_ReadReg(R15)  returns 0x08002368 (0000ms, 0242ms total)
T1074 014:217 JLINK_ReadReg(XPSR)  returns 0x01000000 (0000ms, 0242ms total)
T1074 014:217 JLINK_Step() -- Read from C cache (2 bytes @ 0x08002368) -- CPU_WriteMem(4 bytes @ 0x2000ACDC) -- Simulated  returns 0x00 (0001ms, 0243ms total)
T1074 014:218 JLINK_ReadReg(R15)  returns 0x0800236A (0000ms, 0243ms total)
T1074 014:218 JLINK_ReadReg(XPSR)  returns 0x01000000 (0000ms, 0243ms total)
T1074 014:218 JLINK_Step() -- Read from C cache (2 bytes @ 0x0800236A) -- Simulated  returns 0x00 (0000ms, 0243ms total)
T1074 014:218 JLINK_ReadReg(R15)  returns 0x0800236C (0000ms, 0243ms total)
T1074 014:218 JLINK_ReadReg(XPSR)  returns 0x01000000 (0000ms, 0243ms total)
T1074 014:218 JLINK_Step() -- Read from C cache (2 bytes @ 0x0800236C) -- Read from C cache (2 bytes @ 0x0800236E) -- Simulated  returns 0x00 (0000ms, 0243ms total)
T1074 014:218 JLINK_ReadReg(R15)  returns 0x08002370 (0000ms, 0243ms total)
T1074 014:218 JLINK_ReadReg(XPSR)  returns 0x01000000 (0000ms, 0243ms total)
T1074 014:218 JLINK_Step() -- Read from C cache (2 bytes @ 0x08002370) -- Simulated  returns 0x00 (0000ms, 0243ms total)
T1074 014:218 JLINK_ReadReg(R15)  returns 0x08002372 (0000ms, 0243ms total)
T1074 014:218 JLINK_ReadReg(XPSR)  returns 0x01000000 (0000ms, 0243ms total)
T1074 014:218 JLINK_Step() -- Read from C cache (2 bytes @ 0x08002372) -- CPU_ReadMem(64 bytes @ 0x080023C0) -- Updating C cache (64 bytes @ 0x080023C0) -- Read from C cache (4 bytes @ 0x080023C0) -- Simulated  returns 0x00 (0002ms, 0245ms total)
T1074 014:220 JLINK_ReadReg(R15)  returns 0x08002374 (0000ms, 0245ms total)
T1074 014:220 JLINK_ReadReg(XPSR)  returns 0x01000000 (0000ms, 0245ms total)
T1074 014:220 JLINK_SetBPEx(Addr = 0x08002378, Type = 0xFFFFFFF2)  returns 0x00000003 (0000ms, 0245ms total)
T1074 014:220 JLINK_Go() -- CPU_WriteMem(4 bytes @ 0xE0002008) (0002ms, 0247ms total)
T1074 014:323 JLINK_IsHalted()  returns TRUE (0004ms, 0251ms total)
T1074 014:327 JLINK_Halt()  returns 0x00 (0000ms, 0247ms total)
T1074 014:327 JLINK_IsHalted()  returns TRUE (0000ms, 0247ms total)
T1074 014:327 JLINK_IsHalted()  returns TRUE (0000ms, 0247ms total)
T1074 014:327 JLINK_IsHalted()  returns TRUE (0000ms, 0247ms total)
T1074 014:327 JLINK_ReadReg(R15)  returns 0x08002378 (0000ms, 0247ms total)
T1074 014:327 JLINK_ReadReg(XPSR)  returns 0x61000000 (0000ms, 0247ms total)
T1074 014:327 JLINK_ClrBPEx(BPHandle = 0x00000003)  returns 0x00 (0000ms, 0247ms total)
T1074 014:327 JLINK_ReadMemU32(0xE000ED30, 0x0001 Items, ...) -- CPU_ReadMem(4 bytes @ 0xE000ED30) -- Data:  03 00 00 00  returns 0x01 (0001ms, 0248ms total)
T1074 014:328 JLINK_ReadMemU32(0xE0001028, 0x0001 Items, ...) -- CPU_ReadMem(4 bytes @ 0xE0001028) -- Data:  00 00 00 00  returns 0x01 (0001ms, 0249ms total)
T1074 014:329 JLINK_ReadMemU32(0xE0001038, 0x0001 Items, ...) -- CPU_ReadMem(4 bytes @ 0xE0001038) -- Data:  00 02 00 00  returns 0x01 (0001ms, 0250ms total)
T1074 014:330 JLINK_ReadMemU32(0xE0001048, 0x0001 Items, ...) -- CPU_ReadMem(4 bytes @ 0xE0001048) -- Data:  00 00 00 00  returns 0x01 (0001ms, 0251ms total)
T1074 014:331 JLINK_ReadMemU32(0xE0001058, 0x0001 Items, ...) -- CPU_ReadMem(4 bytes @ 0xE0001058) -- Data:  00 00 00 00  returns 0x01 (0001ms, 0252ms total)
T1074 014:332 JLINK_ReadReg(R0)  returns 0x00000001 (0000ms, 0252ms total)
T1074 014:332 JLINK_ReadReg(R1)  returns 0x20000060 (0000ms, 0252ms total)
T1074 014:332 JLINK_ReadReg(R2)  returns 0x200000B8 (0000ms, 0252ms total)
T1074 014:332 JLINK_ReadReg(R3)  returns 0x00000001 (0000ms, 0252ms total)
T1074 014:332 JLINK_ReadReg(R4)  returns 0x08002854 (0000ms, 0252ms total)
T1074 014:332 JLINK_ReadReg(R5)  returns 0x08002854 (0000ms, 0252ms total)
T1074 014:332 JLINK_ReadReg(R6)  returns 0x00000000 (0000ms, 0252ms total)
T1074 014:332 JLINK_ReadReg(R7)  returns 0x00000000 (0000ms, 0252ms total)
T1074 014:332 JLINK_ReadReg(R8)  returns 0x00000000 (0000ms, 0252ms total)
T1074 014:332 JLINK_ReadReg(R9)  returns 0x20000258 (0000ms, 0252ms total)
T1074 014:332 JLINK_ReadReg(R10)  returns 0x00000000 (0000ms, 0252ms total)
T1074 014:332 JLINK_ReadReg(R11)  returns 0x00000000 (0000ms, 0252ms total)
T1074 014:332 JLINK_ReadReg(R12)  returns 0x00000400 (0000ms, 0252ms total)
T1074 014:332 JLINK_ReadReg(R13)  returns 0x2000ACD0 (0000ms, 0252ms total)
T1074 014:332 JLINK_ReadReg(R14)  returns 0x08001227 (0000ms, 0252ms total)
T1074 014:332 JLINK_ReadReg(R15)  returns 0x08002378 (0000ms, 0252ms total)
T1074 014:332 JLINK_ReadReg(XPSR)  returns 0x61000000 (0000ms, 0252ms total)
T1074 014:332 JLINK_ReadReg(MSP)  returns 0x2000ACD0 (0000ms, 0252ms total)
T1074 014:332 JLINK_ReadReg(PSP)  returns 0x20000800 (0000ms, 0252ms total)
T1074 014:332 JLINK_ReadReg(CFBP)  returns 0x0000B000 (0000ms, 0252ms total)
T1CBC 014:332 JLINK_ReadMemU32(0xE0001004, 0x0001 Items, ...) -- CPU_ReadMem(4 bytes @ 0xE0001004) -- Data:  80 5E 02 00  returns 0x01 (0001ms, 0253ms total)
T1CBC 014:333 JLINK_ReadMem (0x2000AC98, 0x00CC Bytes, ...) -- CPU_ReadMem(256 bytes @ 0x2000AC80) -- Updating C cache (256 bytes @ 0x2000AC80) -- Read from C cache (204 bytes @ 0x2000AC98) -- Data:  E8 03 00 00 5F 25 00 08 B4 23 00 08 E8 03 00 00 ...  returns 0x00 (0004ms, 0257ms total)
T1CBC 014:343 JLINK_ReadMem (0x08002366, 0x0002 Bytes, ...) -- CPU_ReadMem(64 bytes @ 0x08002340) -- Updating C cache (64 bytes @ 0x08002340) -- Read from C cache (2 bytes @ 0x08002366) -- Data:  00 93  returns 0x00 (0001ms, 0258ms total)
T1CBC 014:344 JLINK_ReadMem (0x08002368, 0x003C Bytes, ...) -- CPU_ReadMem(64 bytes @ 0x08002380) -- Updating C cache (64 bytes @ 0x08002380) -- Read from C cache (60 bytes @ 0x08002368) -- Data:  03 90 03 46 4F F4 7A 72 10 A1 13 48 FE F7 DB FE ...  returns 0x00 (0002ms, 0260ms total)
T1074 015:765 JLINK_Step() -- Read from C cache (2 bytes @ 0x08002378) -- Read from C cache (2 bytes @ 0x0800237A) -- Simulated  returns 0x00 (0001ms, 0261ms total)
T1074 015:766 JLINK_ReadReg(R15)  returns 0x08001AB6 (0000ms, 0261ms total)
T1074 015:766 JLINK_ReadReg(XPSR)  returns 0x61000000 (0000ms, 0261ms total)
T1074 015:766 JLINK_ReadReg(R0)  returns 0x00000001 (0000ms, 0261ms total)
T1074 015:766 JLINK_ReadReg(R1)  returns 0x20000060 (0000ms, 0261ms total)
T1074 015:766 JLINK_ReadReg(R2)  returns 0x200000B8 (0000ms, 0261ms total)
T1074 015:766 JLINK_ReadReg(R3)  returns 0x00000001 (0000ms, 0261ms total)
T1074 015:766 JLINK_ReadReg(R4)  returns 0x08002854 (0000ms, 0261ms total)
T1074 015:766 JLINK_ReadReg(R5)  returns 0x08002854 (0000ms, 0261ms total)
T1074 015:766 JLINK_ReadReg(R6)  returns 0x00000000 (0000ms, 0261ms total)
T1074 015:766 JLINK_ReadReg(R7)  returns 0x00000000 (0000ms, 0261ms total)
T1074 015:766 JLINK_ReadReg(R8)  returns 0x00000000 (0001ms, 0262ms total)
T1074 015:767 JLINK_ReadReg(R9)  returns 0x20000258 (0000ms, 0262ms total)
T1074 015:767 JLINK_ReadReg(R10)  returns 0x00000000 (0000ms, 0262ms total)
T1074 015:767 JLINK_ReadReg(R11)  returns 0x00000000 (0000ms, 0262ms total)
T1074 015:767 JLINK_ReadReg(R12)  returns 0x00000400 (0000ms, 0262ms total)
T1074 015:767 JLINK_ReadReg(R13)  returns 0x2000ACD0 (0000ms, 0262ms total)
T1074 015:767 JLINK_ReadReg(R14)  returns 0x0800237D (0000ms, 0262ms total)
T1074 015:767 JLINK_ReadReg(R15)  returns 0x08001AB6 (0000ms, 0262ms total)
T1074 015:767 JLINK_ReadReg(XPSR)  returns 0x61000000 (0000ms, 0262ms total)
T1074 015:767 JLINK_ReadReg(MSP)  returns 0x2000ACD0 (0000ms, 0262ms total)
T1074 015:767 JLINK_ReadReg(PSP)  returns 0x20000800 (0000ms, 0262ms total)
T1074 015:767 JLINK_ReadReg(CFBP)  returns 0x0000B000 (0000ms, 0262ms total)
T1CBC 015:768 JLINK_ReadMemU32(0xE0001004, 0x0001 Items, ...) -- Data:  80 5E 02 00  returns 0x01 (0000ms, 0262ms total)
T1CBC 015:768 JLINK_ReadMem (0x2000AC98, 0x00CC Bytes, ...) -- Read from C cache (204 bytes @ 0x2000AC98) -- Data:  E8 03 00 00 5F 25 00 08 B4 23 00 08 E8 03 00 00 ...  returns 0x00 (0000ms, 0262ms total)
T1CBC 015:778 JLINK_ReadMem (0x08001AB0, 0x003C Bytes, ...) -- CPU_ReadMem(128 bytes @ 0x08001A80) -- Updating C cache (128 bytes @ 0x08001A80) -- Read from C cache (60 bytes @ 0x08001AB0) -- Data:  00 F0 6B FC F4 E7 1F B5 00 20 00 90 01 90 02 90 ...  returns 0x00 (0003ms, 0265ms total)
T1CBC 015:781 JLINK_ReadMem (0x08001AAC, 0x003C Bytes, ...) -- Read from C cache (60 bytes @ 0x08001AAC) -- Data:  00 F0 34 FB 00 F0 6B FC F4 E7 1F B5 00 20 00 90 ...  returns 0x00 (0000ms, 0265ms total)
T1074 019:492 JLINK_Step() -- Read from C cache (2 bytes @ 0x08001AB6) -- CPU_WriteMem(24 bytes @ 0x2000ACB8) -- Simulated  returns 0x00 (0003ms, 0268ms total)
T1074 019:495 JLINK_ReadReg(R15)  returns 0x08001AB8 (0000ms, 0268ms total)
T1074 019:495 JLINK_ReadReg(XPSR)  returns 0x61000000 (0000ms, 0268ms total)
T1074 019:495 JLINK_ReadReg(R0)  returns 0x00000001 (0000ms, 0268ms total)
T1074 019:495 JLINK_ReadReg(R1)  returns 0x20000060 (0000ms, 0268ms total)
T1074 019:495 JLINK_ReadReg(R2)  returns 0x200000B8 (0000ms, 0268ms total)
T1074 019:495 JLINK_ReadReg(R3)  returns 0x00000001 (0000ms, 0268ms total)
T1074 019:495 JLINK_ReadReg(R4)  returns 0x08002854 (0000ms, 0268ms total)
T1074 019:495 JLINK_ReadReg(R5)  returns 0x08002854 (0000ms, 0268ms total)
T1074 019:495 JLINK_ReadReg(R6)  returns 0x00000000 (0000ms, 0268ms total)
T1074 019:495 JLINK_ReadReg(R7)  returns 0x00000000 (0000ms, 0268ms total)
T1074 019:495 JLINK_ReadReg(R8)  returns 0x00000000 (0000ms, 0268ms total)
T1074 019:495 JLINK_ReadReg(R9)  returns 0x20000258 (0000ms, 0268ms total)
T1074 019:495 JLINK_ReadReg(R10)  returns 0x00000000 (0000ms, 0268ms total)
T1074 019:495 JLINK_ReadReg(R11)  returns 0x00000000 (0000ms, 0268ms total)
T1074 019:495 JLINK_ReadReg(R12)  returns 0x00000400 (0000ms, 0268ms total)
T1074 019:495 JLINK_ReadReg(R13)  returns 0x2000ACB8 (0000ms, 0268ms total)
T1074 019:495 JLINK_ReadReg(R14)  returns 0x0800237D (0000ms, 0268ms total)
T1074 019:495 JLINK_ReadReg(R15)  returns 0x08001AB8 (0000ms, 0268ms total)
T1074 019:495 JLINK_ReadReg(XPSR)  returns 0x61000000 (0000ms, 0268ms total)
T1074 019:495 JLINK_ReadReg(MSP)  returns 0x2000ACB8 (0000ms, 0268ms total)
T1074 019:495 JLINK_ReadReg(PSP)  returns 0x20000800 (0000ms, 0268ms total)
T1074 019:495 JLINK_ReadReg(CFBP)  returns 0x0000B000 (0000ms, 0268ms total)
T1CBC 019:501 JLINK_ReadMemU32(0xE0001004, 0x0001 Items, ...) -- Data:  80 5E 02 00  returns 0x01 (0000ms, 0268ms total)
T1CBC 019:502 JLINK_ReadMem (0x2000AC98, 0x00CC Bytes, ...) -- CPU_ReadMem(128 bytes @ 0x2000AC80) -- Updating C cache (128 bytes @ 0x2000AC80) -- Read from C cache (204 bytes @ 0x2000AC98) -- Data:  E8 03 00 00 5F 25 00 08 B4 23 00 08 E8 03 00 00 ...  returns 0x00 (0002ms, 0270ms total)
T1CBC 019:510 JLINK_ReadMem (0x08001AB6, 0x0002 Bytes, ...) -- Read from C cache (2 bytes @ 0x08001AB6) -- Data:  1F B5  returns 0x00 (0000ms, 0270ms total)
T1CBC 019:510 JLINK_ReadMem (0x08001AB8, 0x003C Bytes, ...) -- Read from C cache (60 bytes @ 0x08001AB8) -- Data:  00 20 00 90 01 90 02 90 03 46 82 22 8B A1 03 90 ...  returns 0x00 (0000ms, 0270ms total)
T1074 024:062 JLINK_Step() -- Read from C cache (2 bytes @ 0x08001AB8) -- Simulated  returns 0x00 (0002ms, 0272ms total)
T1074 024:064 JLINK_ReadReg(R15)  returns 0x08001ABA (0000ms, 0272ms total)
T1074 024:064 JLINK_ReadReg(XPSR)  returns 0x61000000 (0000ms, 0272ms total)
T1074 024:064 JLINK_Step() -- Read from C cache (2 bytes @ 0x08001ABA) -- CPU_WriteMem(4 bytes @ 0x2000ACB8) -- Simulated  returns 0x00 (0001ms, 0273ms total)
T1074 024:065 JLINK_ReadReg(R15)  returns 0x08001ABC (0000ms, 0273ms total)
T1074 024:065 JLINK_ReadReg(XPSR)  returns 0x61000000 (0000ms, 0273ms total)
T1074 024:065 JLINK_Step() -- Read from C cache (2 bytes @ 0x08001ABC) -- CPU_WriteMem(4 bytes @ 0x2000ACBC) -- Simulated  returns 0x00 (0001ms, 0274ms total)
T1074 024:066 JLINK_ReadReg(R15)  returns 0x08001ABE (0000ms, 0274ms total)
T1074 024:066 JLINK_ReadReg(XPSR)  returns 0x61000000 (0000ms, 0274ms total)
T1074 024:066 JLINK_Step() -- Read from C cache (2 bytes @ 0x08001ABE) -- CPU_WriteMem(4 bytes @ 0x2000ACC0) -- Simulated  returns 0x00 (0001ms, 0275ms total)
T1074 024:067 JLINK_ReadReg(R15)  returns 0x08001AC0 (0000ms, 0275ms total)
T1074 024:067 JLINK_ReadReg(XPSR)  returns 0x61000000 (0000ms, 0275ms total)
T1074 024:067 JLINK_Step() -- Read from C cache (2 bytes @ 0x08001AC0) -- Simulated  returns 0x00 (0000ms, 0275ms total)
T1074 024:067 JLINK_ReadReg(R15)  returns 0x08001AC2 (0000ms, 0275ms total)
T1074 024:067 JLINK_ReadReg(XPSR)  returns 0x61000000 (0000ms, 0275ms total)
T1074 024:067 JLINK_Step() -- Read from C cache (2 bytes @ 0x08001AC2) -- Simulated  returns 0x00 (0000ms, 0275ms total)
T1074 024:067 JLINK_ReadReg(R15)  returns 0x08001AC4 (0000ms, 0275ms total)
T1074 024:067 JLINK_ReadReg(XPSR)  returns 0x21000000 (0000ms, 0275ms total)
T1074 024:067 JLINK_Step() -- Read from C cache (2 bytes @ 0x08001AC4) -- Simulated  returns 0x00 (0000ms, 0275ms total)
T1074 024:067 JLINK_ReadReg(R15)  returns 0x08001AC6 (0000ms, 0275ms total)
T1074 024:067 JLINK_ReadReg(XPSR)  returns 0x21000000 (0000ms, 0275ms total)
T1074 024:067 JLINK_Step() -- Read from C cache (2 bytes @ 0x08001AC6) -- CPU_WriteMem(4 bytes @ 0x2000ACC4) -- Simulated  returns 0x00 (0001ms, 0276ms total)
T1074 024:068 JLINK_ReadReg(R15)  returns 0x08001AC8 (0000ms, 0276ms total)
T1074 024:068 JLINK_ReadReg(XPSR)  returns 0x21000000 (0000ms, 0276ms total)
T1074 024:068 JLINK_Step() -- Read from C cache (2 bytes @ 0x08001AC8) -- CPU_ReadMem(64 bytes @ 0x08001CC0) -- Updating C cache (64 bytes @ 0x08001CC0) -- Read from C cache (4 bytes @ 0x08001CFC) -- Simulated  returns 0x00 (0001ms, 0277ms total)
T1074 024:069 JLINK_ReadReg(R15)  returns 0x08001ACA (0000ms, 0277ms total)
T1074 024:069 JLINK_ReadReg(XPSR)  returns 0x21000000 (0000ms, 0277ms total)
T1074 024:069 JLINK_SetBPEx(Addr = 0x08001ACE, Type = 0xFFFFFFF2)  returns 0x00000004 (0000ms, 0277ms total)
T1074 024:069 JLINK_Go() -- CPU_WriteMem(4 bytes @ 0xE0002008) (0004ms, 0281ms total)
T1074 024:174 JLINK_IsHalted()  returns TRUE (0004ms, 0285ms total)
T1074 024:179 JLINK_Halt()  returns 0x00 (0000ms, 0281ms total)
T1074 024:179 JLINK_IsHalted()  returns TRUE (0000ms, 0281ms total)
T1074 024:179 JLINK_IsHalted()  returns TRUE (0000ms, 0281ms total)
T1074 024:179 JLINK_IsHalted()  returns TRUE (0000ms, 0281ms total)
T1074 024:179 JLINK_ReadReg(R15)  returns 0x08001ACE (0000ms, 0281ms total)
T1074 024:179 JLINK_ReadReg(XPSR)  returns 0x61000000 (0000ms, 0281ms total)
T1074 024:179 JLINK_ClrBPEx(BPHandle = 0x00000004)  returns 0x00 (0000ms, 0281ms total)
T1074 024:179 JLINK_ReadMemU32(0xE000ED30, 0x0001 Items, ...) -- CPU_ReadMem(4 bytes @ 0xE000ED30) -- Data:  03 00 00 00  returns 0x01 (0001ms, 0282ms total)
T1074 024:180 JLINK_ReadMemU32(0xE0001028, 0x0001 Items, ...) -- CPU_ReadMem(4 bytes @ 0xE0001028) -- Data:  00 00 00 00  returns 0x01 (0001ms, 0283ms total)
T1074 024:181 JLINK_ReadMemU32(0xE0001038, 0x0001 Items, ...) -- CPU_ReadMem(4 bytes @ 0xE0001038) -- Data:  00 02 00 00  returns 0x01 (0000ms, 0283ms total)
T1074 024:181 JLINK_ReadMemU32(0xE0001048, 0x0001 Items, ...) -- CPU_ReadMem(4 bytes @ 0xE0001048) -- Data:  00 00 00 00  returns 0x01 (0000ms, 0283ms total)
T1074 024:181 JLINK_ReadMemU32(0xE0001058, 0x0001 Items, ...) -- CPU_ReadMem(4 bytes @ 0xE0001058) -- Data:  00 00 00 00  returns 0x01 (0001ms, 0284ms total)
T1074 024:182 JLINK_Step() -- CPU_ReadMem(64 bytes @ 0x08001AC0) -- Updating C cache (64 bytes @ 0x08001AC0) -- Read from C cache (2 bytes @ 0x08001ACE) -- Simulated  returns 0x00 (0002ms, 0286ms total)
T1074 024:184 JLINK_ReadReg(R15)  returns 0x08001AD0 (0000ms, 0286ms total)
T1074 024:184 JLINK_ReadReg(XPSR)  returns 0x61000000 (0000ms, 0286ms total)
T1074 024:184 JLINK_ReadReg(R0)  returns 0x00000001 (0000ms, 0286ms total)
T1074 024:184 JLINK_ReadReg(R1)  returns 0x20000060 (0000ms, 0286ms total)
T1074 024:184 JLINK_ReadReg(R2)  returns 0x200000A4 (0000ms, 0286ms total)
T1074 024:184 JLINK_ReadReg(R3)  returns 0x00000001 (0000ms, 0286ms total)
T1074 024:184 JLINK_ReadReg(R4)  returns 0x00000001 (0000ms, 0286ms total)
T1074 024:184 JLINK_ReadReg(R5)  returns 0x08002854 (0000ms, 0286ms total)
T1074 024:184 JLINK_ReadReg(R6)  returns 0x00000000 (0000ms, 0286ms total)
T1074 024:184 JLINK_ReadReg(R7)  returns 0x00000000 (0000ms, 0286ms total)
T1074 024:184 JLINK_ReadReg(R8)  returns 0x00000000 (0000ms, 0286ms total)
T1074 024:184 JLINK_ReadReg(R9)  returns 0x20000258 (0000ms, 0286ms total)
T1074 024:184 JLINK_ReadReg(R10)  returns 0x00000000 (0000ms, 0286ms total)
T1074 024:184 JLINK_ReadReg(R11)  returns 0x00000000 (0000ms, 0286ms total)
T1074 024:184 JLINK_ReadReg(R12)  returns 0x00000400 (0000ms, 0286ms total)
T1074 024:184 JLINK_ReadReg(R13)  returns 0x2000ACB8 (0000ms, 0286ms total)
T1074 024:184 JLINK_ReadReg(R14)  returns 0x08001227 (0000ms, 0286ms total)
T1074 024:184 JLINK_ReadReg(R15)  returns 0x08001AD0 (0000ms, 0286ms total)
T1074 024:184 JLINK_ReadReg(XPSR)  returns 0x61000000 (0000ms, 0286ms total)
T1074 024:184 JLINK_ReadReg(MSP)  returns 0x2000ACB8 (0000ms, 0286ms total)
T1074 024:184 JLINK_ReadReg(PSP)  returns 0x20000800 (0000ms, 0286ms total)
T1074 024:184 JLINK_ReadReg(CFBP)  returns 0x0000B000 (0000ms, 0286ms total)
T1CBC 024:184 JLINK_ReadMemU32(0xE0001004, 0x0001 Items, ...) -- CPU_ReadMem(4 bytes @ 0xE0001004) -- Data:  74 76 02 00  returns 0x01 (0001ms, 0287ms total)
T1CBC 024:185 JLINK_ReadMem (0x2000AC98, 0x00CC Bytes, ...) -- CPU_ReadMem(256 bytes @ 0x2000AC80) -- Updating C cache (256 bytes @ 0x2000AC80) -- Read from C cache (204 bytes @ 0x2000AC98) -- Data:  54 28 00 08 00 00 00 00 00 00 00 00 00 00 00 00 ...  returns 0x00 (0004ms, 0291ms total)
T1CBC 024:194 JLINK_ReadMem (0x08001AB8, 0x003C Bytes, ...) -- CPU_ReadMem(64 bytes @ 0x08001A80) -- Updating C cache (64 bytes @ 0x08001A80) -- Read from C cache (60 bytes @ 0x08001AB8) -- Data:  00 20 00 90 01 90 02 90 03 46 82 22 8B A1 03 90 ...  returns 0x00 (0001ms, 0292ms total)
T1074 028:284 JLINK_Step() -- Read from C cache (2 bytes @ 0x08001AD0) -- Simulated  returns 0x00 (0001ms, 0293ms total)
T1074 028:286 JLINK_ReadReg(R15)  returns 0x08001AD2 (0000ms, 0293ms total)
T1074 028:286 JLINK_ReadReg(XPSR)  returns 0x61000000 (0000ms, 0293ms total)
T1074 028:286 JLINK_Step() -- Read from C cache (2 bytes @ 0x08001AD2) -- Simulated  returns 0x00 (0000ms, 0293ms total)
T1074 028:286 JLINK_ReadReg(R15)  returns 0x08001AD4 (0000ms, 0293ms total)
T1074 028:286 JLINK_ReadReg(XPSR)  returns 0x61000000 (0000ms, 0293ms total)
T1074 028:286 JLINK_ReadReg(R0)  returns 0x00000001 (0000ms, 0293ms total)
T1074 028:286 JLINK_ReadReg(R1)  returns 0x20000060 (0000ms, 0293ms total)
T1074 028:286 JLINK_ReadReg(R2)  returns 0x200000A4 (0000ms, 0293ms total)
T1074 028:286 JLINK_ReadReg(R3)  returns 0x00000001 (0000ms, 0293ms total)
T1074 028:286 JLINK_ReadReg(R4)  returns 0x00000001 (0000ms, 0293ms total)
T1074 028:286 JLINK_ReadReg(R5)  returns 0x08002854 (0000ms, 0293ms total)
T1074 028:286 JLINK_ReadReg(R6)  returns 0x00000000 (0000ms, 0293ms total)
T1074 028:286 JLINK_ReadReg(R7)  returns 0x00000000 (0000ms, 0293ms total)
T1074 028:286 JLINK_ReadReg(R8)  returns 0x00000000 (0000ms, 0293ms total)
T1074 028:286 JLINK_ReadReg(R9)  returns 0x20000258 (0000ms, 0293ms total)
T1074 028:286 JLINK_ReadReg(R10)  returns 0x00000000 (0000ms, 0293ms total)
T1074 028:286 JLINK_ReadReg(R11)  returns 0x00000000 (0000ms, 0293ms total)
T1074 028:286 JLINK_ReadReg(R12)  returns 0x00000400 (0000ms, 0293ms total)
T1074 028:286 JLINK_ReadReg(R13)  returns 0x2000ACB8 (0000ms, 0293ms total)
T1074 028:286 JLINK_ReadReg(R14)  returns 0x08001227 (0000ms, 0293ms total)
T1074 028:286 JLINK_ReadReg(R15)  returns 0x08001AD4 (0000ms, 0293ms total)
T1074 028:286 JLINK_ReadReg(XPSR)  returns 0x61000000 (0000ms, 0293ms total)
T1074 028:286 JLINK_ReadReg(MSP)  returns 0x2000ACB8 (0000ms, 0293ms total)
T1074 028:286 JLINK_ReadReg(PSP)  returns 0x20000800 (0000ms, 0293ms total)
T1074 028:286 JLINK_ReadReg(CFBP)  returns 0x0000B000 (0000ms, 0293ms total)
T1CBC 028:292 JLINK_ReadMemU32(0xE0001004, 0x0001 Items, ...) -- Data:  74 76 02 00  returns 0x01 (0000ms, 0293ms total)
T1CBC 028:292 JLINK_ReadMem (0x2000AC98, 0x00CC Bytes, ...) -- Read from C cache (204 bytes @ 0x2000AC98) -- Data:  54 28 00 08 00 00 00 00 00 00 00 00 00 00 00 00 ...  returns 0x00 (0000ms, 0293ms total)
T1CBC 028:297 JLINK_ReadMem (0x08001AD0, 0x003C Bytes, ...) -- CPU_ReadMem(64 bytes @ 0x08001B00) -- Updating C cache (64 bytes @ 0x08001B00) -- Read from C cache (60 bytes @ 0x08001AD0) -- Data:  01 2C 0A D1 FE F7 78 FB 01 20 7F 49 08 60 00 20 ...  returns 0x00 (0002ms, 0295ms total)
T1074 029:381 JLINK_SetBPEx(Addr = 0x08001AD8, Type = 0xFFFFFFF2)  returns 0x00000005 (0001ms, 0296ms total)
T1074 029:382 JLINK_Go() -- CPU_WriteMem(4 bytes @ 0xE0002008) (0003ms, 0299ms total)
T1074 029:485 JLINK_IsHalted()  returns TRUE (0004ms, 0303ms total)
T1074 029:489 JLINK_Halt()  returns 0x00 (0000ms, 0299ms total)
T1074 029:489 JLINK_IsHalted()  returns TRUE (0000ms, 0299ms total)
T1074 029:489 JLINK_IsHalted()  returns TRUE (0000ms, 0299ms total)
T1074 029:489 JLINK_IsHalted()  returns TRUE (0000ms, 0299ms total)
T1074 029:489 JLINK_ReadReg(R15)  returns 0x08001AD8 (0000ms, 0299ms total)
T1074 029:489 JLINK_ReadReg(XPSR)  returns 0x61000000 (0000ms, 0299ms total)
T1074 029:489 JLINK_ClrBPEx(BPHandle = 0x00000005)  returns 0x00 (0000ms, 0299ms total)
T1074 029:489 JLINK_ReadMemU32(0xE000ED30, 0x0001 Items, ...) -- CPU_ReadMem(4 bytes @ 0xE000ED30) -- Data:  03 00 00 00  returns 0x01 (0001ms, 0300ms total)
T1074 029:490 JLINK_ReadMemU32(0xE0001028, 0x0001 Items, ...) -- CPU_ReadMem(4 bytes @ 0xE0001028) -- Data:  00 00 00 00  returns 0x01 (0001ms, 0301ms total)
T1074 029:491 JLINK_ReadMemU32(0xE0001038, 0x0001 Items, ...) -- CPU_ReadMem(4 bytes @ 0xE0001038) -- Data:  00 02 00 00  returns 0x01 (0001ms, 0302ms total)
T1074 029:492 JLINK_ReadMemU32(0xE0001048, 0x0001 Items, ...) -- CPU_ReadMem(4 bytes @ 0xE0001048) -- Data:  00 00 00 00  returns 0x01 (0001ms, 0303ms total)
T1074 029:493 JLINK_ReadMemU32(0xE0001058, 0x0001 Items, ...) -- CPU_ReadMem(4 bytes @ 0xE0001058) -- Data:  00 00 00 00  returns 0x01 (0000ms, 0303ms total)
T1074 029:494 JLINK_ReadReg(R0)  returns 0x000000B0 (0000ms, 0303ms total)
T1074 029:494 JLINK_ReadReg(R1)  returns 0x000000B0 (0000ms, 0303ms total)
T1074 029:494 JLINK_ReadReg(R2)  returns 0x200000A4 (0000ms, 0303ms total)
T1074 029:494 JLINK_ReadReg(R3)  returns 0x00000001 (0000ms, 0303ms total)
T1074 029:494 JLINK_ReadReg(R4)  returns 0x00000001 (0000ms, 0303ms total)
T1074 029:494 JLINK_ReadReg(R5)  returns 0x08002854 (0000ms, 0303ms total)
T1074 029:494 JLINK_ReadReg(R6)  returns 0x00000000 (0000ms, 0303ms total)
T1074 029:494 JLINK_ReadReg(R7)  returns 0x00000000 (0000ms, 0303ms total)
T1074 029:494 JLINK_ReadReg(R8)  returns 0x00000000 (0000ms, 0303ms total)
T1074 029:494 JLINK_ReadReg(R9)  returns 0x20000258 (0000ms, 0303ms total)
T1074 029:494 JLINK_ReadReg(R10)  returns 0x00000000 (0000ms, 0303ms total)
T1074 029:494 JLINK_ReadReg(R11)  returns 0x00000000 (0000ms, 0303ms total)
T1074 029:494 JLINK_ReadReg(R12)  returns 0x00000400 (0000ms, 0303ms total)
T1074 029:494 JLINK_ReadReg(R13)  returns 0x2000ACB8 (0000ms, 0303ms total)
T1074 029:494 JLINK_ReadReg(R14)  returns 0x08001AD9 (0000ms, 0303ms total)
T1074 029:494 JLINK_ReadReg(R15)  returns 0x08001AD8 (0000ms, 0303ms total)
T1074 029:494 JLINK_ReadReg(XPSR)  returns 0x61000000 (0000ms, 0303ms total)
T1074 029:494 JLINK_ReadReg(MSP)  returns 0x2000ACB8 (0000ms, 0303ms total)
T1074 029:494 JLINK_ReadReg(PSP)  returns 0x20000800 (0000ms, 0303ms total)
T1074 029:494 JLINK_ReadReg(CFBP)  returns 0x0000B000 (0000ms, 0303ms total)
T1CBC 029:494 JLINK_ReadMemU32(0xE0001004, 0x0001 Items, ...) -- CPU_ReadMem(4 bytes @ 0xE0001004) -- Data:  81 76 02 00  returns 0x01 (0001ms, 0304ms total)
T1CBC 029:495 JLINK_ReadMem (0x2000AC98, 0x00CC Bytes, ...) -- CPU_ReadMem(256 bytes @ 0x2000AC80) -- Updating C cache (256 bytes @ 0x2000AC80) -- Read from C cache (204 bytes @ 0x2000AC98) -- Data:  54 28 00 08 00 00 00 00 00 00 00 00 00 00 00 00 ...  returns 0x00 (0004ms, 0308ms total)
T1CBC 029:505 JLINK_ReadMem (0x08001AD4, 0x003C Bytes, ...) -- CPU_ReadMem(128 bytes @ 0x08001AC0) -- Updating C cache (128 bytes @ 0x08001AC0) -- Read from C cache (60 bytes @ 0x08001AD4) -- Data:  FE F7 78 FB 01 20 7F 49 08 60 00 20 87 49 08 60 ...  returns 0x00 (0002ms, 0310ms total)
T1074 031:429 JLINK_Step() -- Read from C cache (2 bytes @ 0x08001AD8) -- Simulated  returns 0x00 (0002ms, 0312ms total)
T1074 031:431 JLINK_ReadReg(R15)  returns 0x08001ADA (0000ms, 0312ms total)
T1074 031:431 JLINK_ReadReg(XPSR)  returns 0x21000000 (0000ms, 0312ms total)
T1074 031:431 JLINK_Step() -- Read from C cache (2 bytes @ 0x08001ADA) -- CPU_ReadMem(64 bytes @ 0x08001CC0) -- Updating C cache (64 bytes @ 0x08001CC0) -- Read from C cache (4 bytes @ 0x08001CD8) -- Simulated  returns 0x00 (0001ms, 0313ms total)
T1074 031:432 JLINK_ReadReg(R15)  returns 0x08001ADC (0000ms, 0313ms total)
T1074 031:432 JLINK_ReadReg(XPSR)  returns 0x21000000 (0000ms, 0313ms total)
T1074 031:432 JLINK_Step() -- Read from C cache (2 bytes @ 0x08001ADC) -- CPU_WriteMem(4 bytes @ 0x2000003C) -- Simulated  returns 0x00 (0001ms, 0314ms total)
T1074 031:433 JLINK_ReadReg(R15)  returns 0x08001ADE (0000ms, 0314ms total)
T1074 031:433 JLINK_ReadReg(XPSR)  returns 0x21000000 (0000ms, 0314ms total)
T1074 031:433 JLINK_ReadReg(R0)  returns 0x00000001 (0000ms, 0314ms total)
T1074 031:433 JLINK_ReadReg(R1)  returns 0x2000003C (0000ms, 0314ms total)
T1074 031:433 JLINK_ReadReg(R2)  returns 0x200000A4 (0000ms, 0314ms total)
T1074 031:433 JLINK_ReadReg(R3)  returns 0x00000001 (0000ms, 0314ms total)
T1074 031:433 JLINK_ReadReg(R4)  returns 0x00000001 (0000ms, 0314ms total)
T1074 031:433 JLINK_ReadReg(R5)  returns 0x08002854 (0000ms, 0314ms total)
T1074 031:433 JLINK_ReadReg(R6)  returns 0x00000000 (0000ms, 0314ms total)
T1074 031:433 JLINK_ReadReg(R7)  returns 0x00000000 (0000ms, 0314ms total)
T1074 031:433 JLINK_ReadReg(R8)  returns 0x00000000 (0000ms, 0314ms total)
T1074 031:433 JLINK_ReadReg(R9)  returns 0x20000258 (0000ms, 0314ms total)
T1074 031:433 JLINK_ReadReg(R10)  returns 0x00000000 (0000ms, 0314ms total)
T1074 031:433 JLINK_ReadReg(R11)  returns 0x00000000 (0000ms, 0314ms total)
T1074 031:433 JLINK_ReadReg(R12)  returns 0x00000400 (0000ms, 0314ms total)
T1074 031:433 JLINK_ReadReg(R13)  returns 0x2000ACB8 (0000ms, 0314ms total)
T1074 031:433 JLINK_ReadReg(R14)  returns 0x08001AD9 (0000ms, 0314ms total)
T1074 031:433 JLINK_ReadReg(R15)  returns 0x08001ADE (0000ms, 0314ms total)
T1074 031:433 JLINK_ReadReg(XPSR)  returns 0x21000000 (0000ms, 0314ms total)
T1074 031:433 JLINK_ReadReg(MSP)  returns 0x2000ACB8 (0000ms, 0314ms total)
T1074 031:433 JLINK_ReadReg(PSP)  returns 0x20000800 (0000ms, 0314ms total)
T1074 031:433 JLINK_ReadReg(CFBP)  returns 0x0000B000 (0000ms, 0314ms total)
T1CBC 031:445 JLINK_ReadMemU32(0xE0001004, 0x0001 Items, ...) -- Data:  81 76 02 00  returns 0x01 (0000ms, 0314ms total)
T1CBC 031:445 JLINK_ReadMem (0x2000AC98, 0x00CC Bytes, ...) -- Read from C cache (204 bytes @ 0x2000AC98) -- Data:  54 28 00 08 00 00 00 00 00 00 00 00 00 00 00 00 ...  returns 0x00 (0000ms, 0314ms total)
T1CBC 031:452 JLINK_ReadMem (0x08001AD8, 0x003C Bytes, ...) -- Read from C cache (60 bytes @ 0x08001AD8) -- Data:  01 20 7F 49 08 60 00 20 87 49 08 60 00 F0 C3 FA ...  returns 0x00 (0000ms, 0314ms total)
T1074 031:988 JLINK_Step() -- Read from C cache (2 bytes @ 0x08001ADE) -- Simulated  returns 0x00 (0001ms, 0315ms total)
T1074 031:989 JLINK_ReadReg(R15)  returns 0x08001AE0 (0000ms, 0315ms total)
T1074 031:989 JLINK_ReadReg(XPSR)  returns 0x61000000 (0000ms, 0315ms total)
T1074 031:989 JLINK_Step() -- Read from C cache (2 bytes @ 0x08001AE0) -- CPU_ReadMem(64 bytes @ 0x08001D00) -- Updating C cache (64 bytes @ 0x08001D00) -- Read from C cache (4 bytes @ 0x08001D00) -- Simulated  returns 0x00 (0002ms, 0317ms total)
T1074 031:991 JLINK_ReadReg(R15)  returns 0x08001AE2 (0000ms, 0317ms total)
T1074 031:991 JLINK_ReadReg(XPSR)  returns 0x61000000 (0000ms, 0317ms total)
